T3E4C 000:085.127   SEGGER J-Link V7.52b Log File
T3E4C 000:085.299   DLL Compiled: Aug  3 2021 16:53:06
T3E4C 000:085.307   Logging started @ 2021-08-18 01:11
T3E4C 000:085.314 - 85.317ms
T3E4C 000:085.340 JLINK_SetWarnOutHandler(...)
T3E4C 000:085.355 - 0.018ms
T3E4C 000:085.364 JLINK_OpenEx(...)
T3E4C 000:087.153   Firmware: J-Link ARM V8 compiled Nov 28 2014 13:44:46
T3E4C 000:087.782   Firmware: J-Link ARM V8 compiled Nov 28 2014 13:44:46
T3E4C 000:092.175   Hardware: V8.00
T3E4C 000:092.211   S/N: 4294967295
T3E4C 000:092.225   OEM: SEGGER
T3E4C 000:092.253   Feature(s): RDI,FlashDL,FlashBP,JFlash,GDB
T3E4C 000:094.245   TELNET listener socket opened on port 19021
T3E4C 000:094.419   WEBSRV Starting webserver
T3E4C 000:094.615   WEBSRV Webserver running on local port 19080
T3E4C 000:122.871 - 37.531ms returns "O.K."
T3E4C 000:122.922 JLINK_SetErrorOutHandler(...)
T3E4C 000:122.940 - 0.022ms
T3E4C 000:122.985 JLINK_ExecCommand("ProjectFile = "E:\stm32-test\printf_IN\MDK-ARM\JLinkSettings.ini"", ...). 
T3E4C 000:148.937   Ref file found at: e:\Keil_v5\ARM\Segger\JLinkDevices.ref
T3E4C 000:149.121   XML referenced by ref file: C:\Program Files\SEGGER\JLink\JLinkDevices.xml
T3E4C 000:149.957   C:\Program Files\SEGGER\JLink\JLinkDevices.xml evaluated successfully.
T3E4C 000:193.172 - 70.204ms returns 0x00
T3E4C 000:196.031 JLINK_ExecCommand("Device = STM32L083RZTx", ...). 
T3E4C 000:204.275   Device "STM32L083RZ" selected.
T3E4C 000:204.757 - 8.721ms returns 0x00
T3E4C 000:204.786 JLINK_ExecCommand("DisableConnectionTimeout", ...). 
T3E4C 000:204.803 - 0.009ms returns 0x01
T3E4C 000:204.817 JLINK_GetHardwareVersion()
T3E4C 000:204.828 - 0.015ms returns 80000
T3E4C 000:204.851 JLINK_GetDLLVersion()
T3E4C 000:204.861 - 0.015ms returns 75202
T3E4C 000:204.874 JLINK_GetOEMString(...)
T3E4C 000:204.892 JLINK_GetFirmwareString(...)
T3E4C 000:204.903 - 0.016ms
T3E4C 000:221.827 JLINK_GetDLLVersion()
T3E4C 000:221.864 - 0.041ms returns 75202
T3E4C 000:221.874 JLINK_GetCompileDateTime()
T3E4C 000:221.881 - 0.010ms
T3E4C 000:228.646 JLINK_GetFirmwareString(...)
T3E4C 000:228.680 - 0.038ms
T3E4C 000:235.331 JLINK_GetHardwareVersion()
T3E4C 000:235.363 - 0.035ms returns 80000
T3E4C 000:242.468 JLINK_GetSN()
T3E4C 000:242.504 - 0.040ms returns -1
T3E4C 000:242.514 JLINK_GetOEMString(...)
T3E4C 000:263.092 JLINK_TIF_Select(JLINKARM_TIF_SWD)
T3E4C 000:272.525 - 9.459ms returns 0x00
T3E4C 000:272.568 JLINK_HasError()
T3E4C 000:272.722 JLINK_SetSpeed(5000)
T3E4C 000:273.627 - 0.914ms
T3E4C 000:273.645 JLINK_GetId()
T3E4C 000:285.295   Found SW-DP with ID 0x0BC11477
T3E4C 000:353.109   Found SW-DP with ID 0x0BC11477
T3E4C 000:363.077   Old FW that does not support reading DPIDR via DAP jobs
T3E4C 000:382.376   DPv0 detected
T3E4C 000:392.740   Scanning AP map to find all available APs
T3E4C 000:406.111   AP[1]: Stopped AP scan as end of AP map has been reached
T3E4C 000:412.178   AP[0]: AHB-AP (IDR: 0x04770031)
T3E4C 000:417.854   Iterating through AP map to find AHB-AP to use
T3E4C 000:433.742   AP[0]: Core found
T3E4C 000:440.986   AP[0]: AHB-AP ROM base: 0xF0000000
T3E4C 000:452.347   CPUID register: 0x410CC601. Implementer code: 0x41 (ARM)
T3E4C 000:458.870   Found Cortex-M0 r0p1, Little endian.
T3E4C 000:561.595   -- Max. mem block: 0x00002408
T3E4C 000:562.777   CPU_ReadMem(4 bytes @ 0xE000EDF0)
T3E4C 000:563.743   CPU_ReadMem(4 bytes @ 0xE0002000)
T3E4C 000:581.283   FPUnit: 4 code (BP) slots and 0 literal slots
T3E4C 000:581.359   CPU_ReadMem(4 bytes @ 0xE000EDFC)
T3E4C 000:582.357   CPU_WriteMem(4 bytes @ 0xE000EDFC)
T3E4C 000:583.288   CPU_ReadMem(4 bytes @ 0xE0001000)
T3E4C 000:584.284   CPU_WriteMem(4 bytes @ 0xE0001000)
T3E4C 000:602.204   CoreSight components:
T3E4C 000:620.824   ROMTbl[0] @ F0000000
T3E4C 000:620.930   CPU_ReadMem(64 bytes @ 0xF0000000)
T3E4C 000:622.241   CPU_ReadMem(32 bytes @ 0xE00FFFE0)
T3E4C 000:641.211   ROMTbl[0][0]: E00FF000, CID: B105100D, PID: 000BB4C0 ROM Table
T3E4C 000:648.745   ROMTbl[1] @ E00FF000
T3E4C 000:648.794   CPU_ReadMem(64 bytes @ 0xE00FF000)
T3E4C 000:650.084   CPU_ReadMem(32 bytes @ 0xE000EFE0)
T3E4C 000:659.995   ROMTbl[1][0]: E000E000, CID: B105E00D, PID: 000BB008 SCS
T3E4C 000:660.046   CPU_ReadMem(32 bytes @ 0xE0001FE0)
T3E4C 000:668.625   ROMTbl[1][1]: E0001000, CID: B105E00D, PID: 000BB00A DWT
T3E4C 000:668.670   CPU_ReadMem(32 bytes @ 0xE0002FE0)
T3E4C 000:676.317   ROMTbl[1][2]: E0002000, CID: B105E00D, PID: 000BB00B FPB
T3E4C 000:677.594 - 403.960ms returns 0x0BC11477
T3E4C 000:677.628 JLINK_GetDLLVersion()
T3E4C 000:677.636 - 0.020ms returns 75202
T3E4C 000:677.654 JLINK_CORE_GetFound()
T3E4C 000:677.661 - 0.010ms returns 0x60000FF
T3E4C 000:677.672 JLINK_GetDebugInfo(0x100 = JLINKARM_ROM_TABLE_ADDR_INDEX)
T3E4C 000:677.681   Value=0xF0000000
T3E4C 000:677.690 - 0.022ms returns 0
T3E4C 000:683.259 JLINK_GetDebugInfo(0x100 = JLINKARM_ROM_TABLE_ADDR_INDEX)
T3E4C 000:683.285   Value=0xF0000000
T3E4C 000:683.295 - 0.039ms returns 0
T3E4C 000:683.303 JLINK_GetDebugInfo(0x101 = JLINKARM_DEBUG_INFO_ETM_ADDR_INDEX)
T3E4C 000:683.310   Value=0x00000000
T3E4C 000:683.320 - 0.019ms returns 0
T3E4C 000:683.579 JLINK_ReadMem(0xE0041FF0, 0x10 Bytes, ...)
T3E4C 000:683.923   CPU_ReadMem(16 bytes @ 0xE0041FF0)
T3E4C 000:685.110   Data:  00 00 00 00 00 00 00 00 00 00 00 00 00 00 00 00
T3E4C 000:685.142 - 1.567ms returns 0
T3E4C 000:685.152 JLINK_GetDebugInfo(0x102 = JLINKARM_DEBUG_INFO_MTB_ADDR_INDEX)
T3E4C 000:685.160   Value=0x00000000
T3E4C 000:685.170 - 0.020ms returns 0
T3E4C 000:685.178 JLINK_GetDebugInfo(0x103 = JLINKARM_DEBUG_INFO_TPIU_ADDR_INDEX)
T3E4C 000:685.185   Value=0x00000000
T3E4C 000:685.194 - 0.020ms returns 0
T3E4C 000:685.202 JLINK_ReadMem(0xE0040FF0, 0x10 Bytes, ...)
T3E4C 000:685.215   CPU_ReadMem(16 bytes @ 0xE0040FF0)
T3E4C 000:686.080   Data:  00 00 00 00 00 00 00 00 00 00 00 00 00 00 00 00
T3E4C 000:686.118 - 0.919ms returns 0
T3E4C 000:686.127 JLINK_GetDebugInfo(0x104 = JLINKARM_DEBUG_INFO_ITM_ADDR_INDEX)
T3E4C 000:686.135   Value=0xE0000000
T3E4C 000:686.144 - 0.020ms returns 0
T3E4C 000:686.152 JLINK_GetDebugInfo(0x105 = JLINKARM_DEBUG_INFO_DWT_ADDR_INDEX)
T3E4C 000:686.159   Value=0xE0001000
T3E4C 000:686.168 - 0.019ms returns 0
T3E4C 000:686.176 JLINK_GetDebugInfo(0x106 = JLINKARM_DEBUG_INFO_FPB_ADDR_INDEX)
T3E4C 000:686.183   Value=0xE0002000
T3E4C 000:686.192 - 0.019ms returns 0
T3E4C 000:686.200 JLINK_GetDebugInfo(0x107 = JLINKARM_DEBUG_INFO_NVIC_ADDR_INDEX)
T3E4C 000:686.207   Value=0xE000E000
T3E4C 000:686.216 - 0.019ms returns 0
T3E4C 000:686.224 JLINK_GetDebugInfo(0x10C = JLINKARM_DEBUG_INFO_DBG_ADDR_INDEX)
T3E4C 000:686.231   Value=0xE000EDF0
T3E4C 000:686.241 - 0.019ms returns 0
T3E4C 000:686.249 JLINK_ReadMemU32(0xE000ED00, 0x1 Items)
T3E4C 000:686.261   CPU_ReadMem(4 bytes @ 0xE000ED00)
T3E4C 000:687.094   Data:  01 C6 0C 41
T3E4C 000:687.127   Debug reg: CPUID
T3E4C 000:687.137 - 0.891ms returns 1 (0x1)
T3E4C 000:687.147 JLINK_HasError()
T3E4C 000:687.159 JLINK_SetResetType(JLINKARM_CM3_RESET_TYPE_NORMAL)
T3E4C 000:687.166 - 0.011ms returns JLINKARM_CM3_RESET_TYPE_NORMAL
T3E4C 000:687.174 JLINK_Reset()
T3E4C 000:687.203   CPU is running
T3E4C 000:687.218   CPU_WriteMem(4 bytes @ 0xE000EDF0)
T3E4C 000:687.787   CPU is running
T3E4C 000:687.814   CPU_WriteMem(4 bytes @ 0xE000EDFC)
T3E4C 000:694.282   Reset: Halt core after reset via DEMCR.VC_CORERESET.
T3E4C 000:701.086   Reset: Reset device via AIRCR.SYSRESETREQ.
T3E4C 000:701.120   CPU is running
T3E4C 000:701.135   CPU_WriteMem(4 bytes @ 0xE000ED0C)
T3E4C 000:755.622   CPU_ReadMem(4 bytes @ 0xE000EDF0)
T3E4C 000:756.733   CPU_ReadMem(4 bytes @ 0xE000EDF0)
T3E4C 000:757.617   CPU is running
T3E4C 000:757.668   CPU_WriteMem(4 bytes @ 0xE000EDF0)
T3E4C 000:758.515   CPU is running
T3E4C 000:758.558   CPU_WriteMem(4 bytes @ 0xE000EDFC)
T3E4C 000:765.484   CPU_ReadMem(4 bytes @ 0xE000EDF0)
T3E4C 000:769.926   CPU_WriteMem(4 bytes @ 0xE0002000)
T3E4C 000:770.730   CPU_ReadMem(4 bytes @ 0xE000EDFC)
T3E4C 000:771.583   CPU_ReadMem(4 bytes @ 0xE0001000)
T3E4C 000:772.493   CPU_WriteMem(4 bytes @ 0xE0001000)
T3E4C 000:773.384 - 86.233ms
T3E4C 000:773.463 JLINK_Halt()
T3E4C 000:773.500 - 0.054ms returns 0x00
T3E4C 000:773.552 JLINK_IsHalted()
T3E4C 000:773.586 - 0.051ms returns TRUE
T3E4C 000:773.636 JLINK_ReadMemU32(0xE000EDF0, 0x1 Items)
T3E4C 000:773.696   CPU_ReadMem(4 bytes @ 0xE000EDF0)
T3E4C 000:774.585   Data:  03 00 03 01
T3E4C 000:774.635   Debug reg: DHCSR
T3E4C 000:774.663 - 1.037ms returns 1 (0x1)
T3E4C 000:774.875 JLINK_WriteU32_64(0xE000EDF0, 0xA05F0003)
T3E4C 000:774.909   Debug reg: DHCSR
T3E4C 000:776.282   CPU_WriteMem(4 bytes @ 0xE000EDF0)
T3E4C 000:777.082 - 2.231ms returns 0 (0x00000000)
T3E4C 000:777.127 JLINK_WriteU32_64(0xE000EDFC, 0x01000000)
T3E4C 000:777.150   Debug reg: DEMCR
T3E4C 000:777.194   CPU_WriteMem(4 bytes @ 0xE000EDFC)
T3E4C 000:777.955 - 0.850ms returns 0 (0x00000000)
T3E4C 000:850.962 JLINK_GetHWStatus(...)
T3E4C 000:851.711 - 0.774ms returns 0
T3E4C 000:893.026 JLINK_GetNumBPUnits(Type = 0xFFFFFF00)
T3E4C 000:893.076 - 0.056ms returns 0x04
T3E4C 000:893.091 JLINK_GetNumBPUnits(Type = 0xF0)
T3E4C 000:893.104 - 0.018ms returns 0x2000
T3E4C 000:893.117 JLINK_GetNumWPUnits()
T3E4C 000:893.129 - 0.017ms returns 2
T3E4C 000:920.029 JLINK_GetSpeed()
T3E4C 000:920.062 - 0.036ms returns 4000
T3E4C 000:932.848 JLINK_ReadMemU32(0xE000E004, 0x1 Items)
T3E4C 000:932.898   CPU_ReadMem(4 bytes @ 0xE000E004)
T3E4C 000:933.730   Data:  00 00 00 00
T3E4C 000:933.753 - 0.910ms returns 1 (0x1)
T3E4C 000:933.781 JLINK_Halt()
T3E4C 000:933.790 - 0.013ms returns 0x00
T3E4C 000:933.799 JLINK_IsHalted()
T3E4C 000:933.807 - 0.012ms returns TRUE
T3E4C 000:938.332 JLINK_WriteMem(0x20000000, 0x140 Bytes, ...)
T3E4C 000:938.368   Data:  00 BE 0A E0 0D 78 2D 06 68 40 08 24 40 00 00 D3 ...
T3E4C 000:939.019   CPU_WriteMem(320 bytes @ 0x20000000)
T3E4C 000:942.392 - 4.085ms returns 0x140
T3E4C 000:942.471 JLINK_HasError()
T3E4C 000:942.483 JLINK_WriteReg(R0, 0x08000000)
T3E4C 000:942.497 - 0.017ms returns 0
T3E4C 000:942.506 JLINK_WriteReg(R1, 0x007A1200)
T3E4C 000:942.514 - 0.011ms returns 0
T3E4C 000:942.522 JLINK_WriteReg(R2, 0x00000001)
T3E4C 000:942.530 - 0.011ms returns 0
T3E4C 000:942.538 JLINK_WriteReg(R3, 0x00000000)
T3E4C 000:942.546 - 0.011ms returns 0
T3E4C 000:942.554 JLINK_WriteReg(R4, 0x00000000)
T3E4C 000:942.563 - 0.012ms returns 0
T3E4C 000:942.571 JLINK_WriteReg(R5, 0x00000000)
T3E4C 000:942.579 - 0.011ms returns 0
T3E4C 000:942.586 JLINK_WriteReg(R6, 0x00000000)
T3E4C 000:942.594 - 0.011ms returns 0
T3E4C 000:942.602 JLINK_WriteReg(R7, 0x00000000)
T3E4C 000:942.610 - 0.011ms returns 0
T3E4C 000:942.618 JLINK_WriteReg(R8, 0x00000000)
T3E4C 000:942.963 - 0.348ms returns 0
T3E4C 000:942.973 JLINK_WriteReg(R9, 0x2000013C)
T3E4C 000:942.981 - 0.012ms returns 0
T3E4C 000:942.989 JLINK_WriteReg(R10, 0x00000000)
T3E4C 000:942.998 - 0.011ms returns 0
T3E4C 000:943.006 JLINK_WriteReg(R11, 0x00000000)
T3E4C 000:943.014 - 0.011ms returns 0
T3E4C 000:943.022 JLINK_WriteReg(R12, 0x00000000)
T3E4C 000:943.031 - 0.012ms returns 0
T3E4C 000:943.039 JLINK_WriteReg(R13 (SP), 0x20001000)
T3E4C 000:943.047 - 0.012ms returns 0
T3E4C 000:943.056 JLINK_WriteReg(R14, 0x20000001)
T3E4C 000:943.064 - 0.011ms returns 0
T3E4C 000:943.072 JLINK_WriteReg(R15 (PC), 0x20000020)
T3E4C 000:943.356 - 0.288ms returns 0
T3E4C 000:943.366 JLINK_WriteReg(XPSR, 0x01000000)
T3E4C 000:943.375 - 0.012ms returns 0
T3E4C 000:943.383 JLINK_WriteReg(MSP, 0x20001000)
T3E4C 000:943.391 - 0.011ms returns 0
T3E4C 000:943.399 JLINK_WriteReg(PSP, 0x20001000)
T3E4C 000:943.407 - 0.011ms returns 0
T3E4C 000:943.415 JLINK_WriteReg(CFBP, 0x00000000)
T3E4C 000:943.423 - 0.011ms returns 0
T3E4C 000:943.431 JLINK_SetBPEx(Addr = 0x20000000, Type = 0xFFFFFFF2)
T3E4C 000:943.447   CPU_ReadMem(2 bytes @ 0x20000000)
T3E4C 000:944.308 - 0.884ms returns 0x00000001
T3E4C 000:944.322 JLINK_Go()
T3E4C 000:944.341   CPU_WriteMem(2 bytes @ 0x20000000)
T3E4C 000:945.196   CPU_ReadMem(4 bytes @ 0xE0001000)
T3E4C 000:945.944   CPU_WriteMem(4 bytes @ 0xE0001000)
T3E4C 000:945.996   CPU_WriteMem(4 bytes @ 0xE0002008)
T3E4C 000:946.007   CPU_WriteMem(4 bytes @ 0xE000200C)
T3E4C 000:946.017   CPU_WriteMem(4 bytes @ 0xE0002010)
T3E4C 000:946.027   CPU_WriteMem(4 bytes @ 0xE0002014)
T3E4C 000:948.016   CPU_WriteMem(4 bytes @ 0xE0001004)
T3E4C 000:951.741 - 7.433ms
T3E4C 000:951.765 JLINK_IsHalted()
T3E4C 000:954.576   CPU_ReadMem(2 bytes @ 0x20000000)
T3E4C 000:955.226 - 3.478ms returns TRUE
T3E4C 000:955.262 JLINK_ReadReg(R15 (PC))
T3E4C 000:955.284 - 0.028ms returns 0x20000000
T3E4C 000:955.299 JLINK_ClrBPEx(BPHandle = 0x00000001)
T3E4C 000:955.314 - 0.020ms returns 0x00
T3E4C 000:955.329 JLINK_ReadReg(R0)
T3E4C 000:955.344 - 0.020ms returns 0x00000000
T3E4C 000:956.374 JLINK_HasError()
T3E4C 000:956.411 JLINK_WriteReg(R0, 0x08000000)
T3E4C 000:956.431 - 0.027ms returns 0
T3E4C 000:956.448 JLINK_WriteReg(R1, 0x00000080)
T3E4C 000:956.464 - 0.022ms returns 0
T3E4C 000:956.479 JLINK_WriteReg(R2, 0x00000000)
T3E4C 000:956.493 - 0.020ms returns 0
T3E4C 000:956.507 JLINK_WriteReg(R3, 0x00000000)
T3E4C 000:956.521 - 0.021ms returns 0
T3E4C 000:956.537 JLINK_WriteReg(R4, 0x00000000)
T3E4C 000:956.551 - 0.020ms returns 0
T3E4C 000:956.566 JLINK_WriteReg(R5, 0x00000000)
T3E4C 000:956.579 - 0.019ms returns 0
T3E4C 000:956.592 JLINK_WriteReg(R6, 0x00000000)
T3E4C 000:956.605 - 0.018ms returns 0
T3E4C 000:956.619 JLINK_WriteReg(R7, 0x00000000)
T3E4C 000:956.632 - 0.019ms returns 0
T3E4C 000:956.646 JLINK_WriteReg(R8, 0x00000000)
T3E4C 000:956.660 - 0.020ms returns 0
T3E4C 000:956.676 JLINK_WriteReg(R9, 0x2000013C)
T3E4C 000:956.689 - 0.019ms returns 0
T3E4C 000:956.704 JLINK_WriteReg(R10, 0x00000000)
T3E4C 000:956.718 - 0.020ms returns 0
T3E4C 000:956.732 JLINK_WriteReg(R11, 0x00000000)
T3E4C 000:956.747 - 0.021ms returns 0
T3E4C 000:956.761 JLINK_WriteReg(R12, 0x00000000)
T3E4C 000:956.775 - 0.020ms returns 0
T3E4C 000:956.790 JLINK_WriteReg(R13 (SP), 0x20001000)
T3E4C 000:956.801 - 0.015ms returns 0
T3E4C 000:956.814 JLINK_WriteReg(R14, 0x20000001)
T3E4C 000:956.829 - 0.021ms returns 0
T3E4C 000:956.844 JLINK_WriteReg(R15 (PC), 0x200000B0)
T3E4C 000:956.859 - 0.021ms returns 0
T3E4C 000:956.879 JLINK_WriteReg(XPSR, 0x01000000)
T3E4C 000:956.894 - 0.021ms returns 0
T3E4C 000:956.908 JLINK_WriteReg(MSP, 0x20001000)
T3E4C 000:956.922 - 0.020ms returns 0
T3E4C 000:956.936 JLINK_WriteReg(PSP, 0x20001000)
T3E4C 000:956.950 - 0.020ms returns 0
T3E4C 000:956.964 JLINK_WriteReg(CFBP, 0x00000000)
T3E4C 000:956.978 - 0.019ms returns 0
T3E4C 000:956.993 JLINK_SetBPEx(Addr = 0x20000000, Type = 0xFFFFFFF2)
T3E4C 000:957.009 - 0.023ms returns 0x00000002
T3E4C 000:957.023 JLINK_Go()
T3E4C 000:957.053   CPU_ReadMem(4 bytes @ 0xE0001000)
T3E4C 000:957.696   CPU_WriteMem(4 bytes @ 0xE0001000)
T3E4C 000:961.627 - 4.632ms
T3E4C 000:961.668 JLINK_IsHalted()
T3E4C 000:964.943   CPU_ReadMem(2 bytes @ 0x20000000)
T3E4C 000:965.707 - 4.046ms returns TRUE
T3E4C 000:965.725 JLINK_ReadReg(R15 (PC))
T3E4C 000:965.741 - 0.021ms returns 0x20000000
T3E4C 000:965.754 JLINK_ClrBPEx(BPHandle = 0x00000002)
T3E4C 000:965.765 - 0.015ms returns 0x00
T3E4C 000:965.774 JLINK_ReadReg(R0)
T3E4C 000:965.783 - 0.012ms returns 0x00000001
T3E4C 000:965.792 JLINK_HasError()
T3E4C 000:965.801 JLINK_WriteReg(R0, 0x08000000)
T3E4C 000:965.810 - 0.012ms returns 0
T3E4C 000:965.818 JLINK_WriteReg(R1, 0x00000080)
T3E4C 000:965.826 - 0.011ms returns 0
T3E4C 000:965.834 JLINK_WriteReg(R2, 0x00000000)
T3E4C 000:965.842 - 0.011ms returns 0
T3E4C 000:965.850 JLINK_WriteReg(R3, 0x00000000)
T3E4C 000:965.858 - 0.011ms returns 0
T3E4C 000:965.866 JLINK_WriteReg(R4, 0x00000000)
T3E4C 000:965.874 - 0.011ms returns 0
T3E4C 000:965.881 JLINK_WriteReg(R5, 0x00000000)
T3E4C 000:965.889 - 0.011ms returns 0
T3E4C 000:965.897 JLINK_WriteReg(R6, 0x00000000)
T3E4C 000:965.905 - 0.011ms returns 0
T3E4C 000:965.913 JLINK_WriteReg(R7, 0x00000000)
T3E4C 000:965.921 - 0.011ms returns 0
T3E4C 000:965.929 JLINK_WriteReg(R8, 0x00000000)
T3E4C 000:965.937 - 0.011ms returns 0
T3E4C 000:966.021 JLINK_WriteReg(R9, 0x2000013C)
T3E4C 000:966.036 - 0.019ms returns 0
T3E4C 000:966.045 JLINK_WriteReg(R10, 0x00000000)
T3E4C 000:966.053 - 0.011ms returns 0
T3E4C 000:966.061 JLINK_WriteReg(R11, 0x00000000)
T3E4C 000:966.068 - 0.011ms returns 0
T3E4C 000:966.076 JLINK_WriteReg(R12, 0x00000000)
T3E4C 000:966.084 - 0.011ms returns 0
T3E4C 000:966.092 JLINK_WriteReg(R13 (SP), 0x20001000)
T3E4C 000:966.101 - 0.012ms returns 0
T3E4C 000:966.109 JLINK_WriteReg(R14, 0x20000001)
T3E4C 000:966.116 - 0.011ms returns 0
T3E4C 000:966.124 JLINK_WriteReg(R15 (PC), 0x2000007A)
T3E4C 000:966.132 - 0.011ms returns 0
T3E4C 000:966.140 JLINK_WriteReg(XPSR, 0x01000000)
T3E4C 000:966.148 - 0.011ms returns 0
T3E4C 000:966.156 JLINK_WriteReg(MSP, 0x20001000)
T3E4C 000:966.164 - 0.011ms returns 0
T3E4C 000:966.172 JLINK_WriteReg(PSP, 0x20001000)
T3E4C 000:966.181 - 0.011ms returns 0
T3E4C 000:966.189 JLINK_WriteReg(CFBP, 0x00000000)
T3E4C 000:966.196 - 0.011ms returns 0
T3E4C 000:966.205 JLINK_SetBPEx(Addr = 0x20000000, Type = 0xFFFFFFF2)
T3E4C 000:966.214 - 0.012ms returns 0x00000003
T3E4C 000:966.222 JLINK_Go()
T3E4C 000:966.237   CPU_ReadMem(4 bytes @ 0xE0001000)
T3E4C 000:967.033   CPU_WriteMem(4 bytes @ 0xE0001000)
T3E4C 000:970.903 - 4.694ms
T3E4C 000:970.926 JLINK_IsHalted()
T3E4C 000:971.542 - 0.659ms returns FALSE
T3E4C 000:971.605 JLINK_HasError()
T3E4C 001:002.597 JLINK_IsHalted()
T3E4C 001:005.732   CPU_ReadMem(2 bytes @ 0x20000000)
T3E4C 001:006.652 - 4.070ms returns TRUE
T3E4C 001:006.750 JLINK_ReadReg(R15 (PC))
T3E4C 001:006.771 - 0.027ms returns 0x20000000
T3E4C 001:006.788 JLINK_ClrBPEx(BPHandle = 0x00000003)
T3E4C 001:006.803 - 0.019ms returns 0x00
T3E4C 001:006.814 JLINK_ReadReg(R0)
T3E4C 001:006.823 - 0.013ms returns 0x00000000
T3E4C 001:007.953 JLINK_HasError()
T3E4C 001:007.970 JLINK_WriteReg(R0, 0x08000080)
T3E4C 001:007.981 - 0.014ms returns 0
T3E4C 001:007.989 JLINK_WriteReg(R1, 0x00000080)
T3E4C 001:007.998 - 0.012ms returns 0
T3E4C 001:008.006 JLINK_WriteReg(R2, 0x00000000)
T3E4C 001:008.014 - 0.011ms returns 0
T3E4C 001:008.023 JLINK_WriteReg(R3, 0x00000000)
T3E4C 001:008.031 - 0.011ms returns 0
T3E4C 001:008.039 JLINK_WriteReg(R4, 0x00000000)
T3E4C 001:008.047 - 0.011ms returns 0
T3E4C 001:008.055 JLINK_WriteReg(R5, 0x00000000)
T3E4C 001:008.063 - 0.011ms returns 0
T3E4C 001:008.071 JLINK_WriteReg(R6, 0x00000000)
T3E4C 001:008.079 - 0.011ms returns 0
T3E4C 001:008.088 JLINK_WriteReg(R7, 0x00000000)
T3E4C 001:008.096 - 0.011ms returns 0
T3E4C 001:008.104 JLINK_WriteReg(R8, 0x00000000)
T3E4C 001:008.112 - 0.011ms returns 0
T3E4C 001:008.120 JLINK_WriteReg(R9, 0x2000013C)
T3E4C 001:008.128 - 0.011ms returns 0
T3E4C 001:008.136 JLINK_WriteReg(R10, 0x00000000)
T3E4C 001:008.144 - 0.012ms returns 0
T3E4C 001:008.153 JLINK_WriteReg(R11, 0x00000000)
T3E4C 001:008.161 - 0.011ms returns 0
T3E4C 001:008.169 JLINK_WriteReg(R12, 0x00000000)
T3E4C 001:008.177 - 0.011ms returns 0
T3E4C 001:008.185 JLINK_WriteReg(R13 (SP), 0x20001000)
T3E4C 001:008.193 - 0.012ms returns 0
T3E4C 001:008.201 JLINK_WriteReg(R14, 0x20000001)
T3E4C 001:008.209 - 0.011ms returns 0
T3E4C 001:008.218 JLINK_WriteReg(R15 (PC), 0x200000B0)
T3E4C 001:008.226 - 0.011ms returns 0
T3E4C 001:008.234 JLINK_WriteReg(XPSR, 0x01000000)
T3E4C 001:008.242 - 0.011ms returns 0
T3E4C 001:008.250 JLINK_WriteReg(MSP, 0x20001000)
T3E4C 001:008.258 - 0.011ms returns 0
T3E4C 001:008.266 JLINK_WriteReg(PSP, 0x20001000)
T3E4C 001:008.274 - 0.011ms returns 0
T3E4C 001:008.282 JLINK_WriteReg(CFBP, 0x00000000)
T3E4C 001:008.290 - 0.011ms returns 0
T3E4C 001:008.298 JLINK_SetBPEx(Addr = 0x20000000, Type = 0xFFFFFFF2)
T3E4C 001:008.307 - 0.013ms returns 0x00000004
T3E4C 001:008.316 JLINK_Go()
T3E4C 001:008.333   CPU_ReadMem(4 bytes @ 0xE0001000)
T3E4C 001:009.025   CPU_WriteMem(4 bytes @ 0xE0001000)
T3E4C 001:012.857 - 4.550ms
T3E4C 001:012.874 JLINK_IsHalted()
T3E4C 001:015.637   CPU_ReadMem(2 bytes @ 0x20000000)
T3E4C 001:016.250 - 3.383ms returns TRUE
T3E4C 001:016.266 JLINK_ReadReg(R15 (PC))
T3E4C 001:016.290 - 0.030ms returns 0x20000000
T3E4C 001:016.302 JLINK_ClrBPEx(BPHandle = 0x00000004)
T3E4C 001:016.313 - 0.014ms returns 0x00
T3E4C 001:016.321 JLINK_ReadReg(R0)
T3E4C 001:016.329 - 0.011ms returns 0x00000001
T3E4C 001:016.338 JLINK_HasError()
T3E4C 001:016.346 JLINK_WriteReg(R0, 0x08000080)
T3E4C 001:016.355 - 0.011ms returns 0
T3E4C 001:016.363 JLINK_WriteReg(R1, 0x00000080)
T3E4C 001:016.371 - 0.011ms returns 0
T3E4C 001:016.379 JLINK_WriteReg(R2, 0x00000000)
T3E4C 001:016.387 - 0.011ms returns 0
T3E4C 001:016.395 JLINK_WriteReg(R3, 0x00000000)
T3E4C 001:016.403 - 0.011ms returns 0
T3E4C 001:016.411 JLINK_WriteReg(R4, 0x00000000)
T3E4C 001:016.419 - 0.011ms returns 0
T3E4C 001:016.427 JLINK_WriteReg(R5, 0x00000000)
T3E4C 001:016.435 - 0.011ms returns 0
T3E4C 001:016.443 JLINK_WriteReg(R6, 0x00000000)
T3E4C 001:016.451 - 0.011ms returns 0
T3E4C 001:016.459 JLINK_WriteReg(R7, 0x00000000)
T3E4C 001:016.467 - 0.011ms returns 0
T3E4C 001:016.475 JLINK_WriteReg(R8, 0x00000000)
T3E4C 001:016.483 - 0.011ms returns 0
T3E4C 001:016.491 JLINK_WriteReg(R9, 0x2000013C)
T3E4C 001:016.499 - 0.011ms returns 0
T3E4C 001:016.507 JLINK_WriteReg(R10, 0x00000000)
T3E4C 001:016.515 - 0.011ms returns 0
T3E4C 001:016.523 JLINK_WriteReg(R11, 0x00000000)
T3E4C 001:016.531 - 0.011ms returns 0
T3E4C 001:016.539 JLINK_WriteReg(R12, 0x00000000)
T3E4C 001:016.547 - 0.011ms returns 0
T3E4C 001:016.555 JLINK_WriteReg(R13 (SP), 0x20001000)
T3E4C 001:016.563 - 0.011ms returns 0
T3E4C 001:016.571 JLINK_WriteReg(R14, 0x20000001)
T3E4C 001:016.579 - 0.011ms returns 0
T3E4C 001:016.587 JLINK_WriteReg(R15 (PC), 0x2000007A)
T3E4C 001:016.595 - 0.011ms returns 0
T3E4C 001:016.603 JLINK_WriteReg(XPSR, 0x01000000)
T3E4C 001:016.611 - 0.014ms returns 0
T3E4C 001:016.623 JLINK_WriteReg(MSP, 0x20001000)
T3E4C 001:016.631 - 0.012ms returns 0
T3E4C 001:016.639 JLINK_WriteReg(PSP, 0x20001000)
T3E4C 001:016.647 - 0.011ms returns 0
T3E4C 001:016.655 JLINK_WriteReg(CFBP, 0x00000000)
T3E4C 001:016.663 - 0.011ms returns 0
T3E4C 001:016.671 JLINK_SetBPEx(Addr = 0x20000000, Type = 0xFFFFFFF2)
T3E4C 001:016.680 - 0.012ms returns 0x00000005
T3E4C 001:016.688 JLINK_Go()
T3E4C 001:016.701   CPU_ReadMem(4 bytes @ 0xE0001000)
T3E4C 001:017.498   CPU_WriteMem(4 bytes @ 0xE0001000)
T3E4C 001:021.027 - 4.355ms
T3E4C 001:021.055 JLINK_IsHalted()
T3E4C 001:021.655 - 0.619ms returns FALSE
T3E4C 001:021.688 JLINK_HasError()
T3E4C 001:023.064 JLINK_IsHalted()
T3E4C 001:023.669 - 0.615ms returns FALSE
T3E4C 001:023.687 JLINK_HasError()
T3E4C 001:025.055 JLINK_IsHalted()
T3E4C 001:028.016   CPU_ReadMem(2 bytes @ 0x20000000)
T3E4C 001:028.743 - 3.696ms returns TRUE
T3E4C 001:028.759 JLINK_ReadReg(R15 (PC))
T3E4C 001:028.775 - 0.021ms returns 0x20000000
T3E4C 001:028.787 JLINK_ClrBPEx(BPHandle = 0x00000005)
T3E4C 001:028.799 - 0.016ms returns 0x00
T3E4C 001:028.809 JLINK_ReadReg(R0)
T3E4C 001:028.818 - 0.012ms returns 0x00000000
T3E4C 001:029.587 JLINK_HasError()
T3E4C 001:029.602 JLINK_WriteReg(R0, 0x08000100)
T3E4C 001:029.613 - 0.014ms returns 0
T3E4C 001:029.622 JLINK_WriteReg(R1, 0x00000080)
T3E4C 001:029.630 - 0.012ms returns 0
T3E4C 001:029.638 JLINK_WriteReg(R2, 0x00000000)
T3E4C 001:029.646 - 0.011ms returns 0
T3E4C 001:029.654 JLINK_WriteReg(R3, 0x00000000)
T3E4C 001:029.663 - 0.011ms returns 0
T3E4C 001:029.671 JLINK_WriteReg(R4, 0x00000000)
T3E4C 001:029.679 - 0.011ms returns 0
T3E4C 001:029.687 JLINK_WriteReg(R5, 0x00000000)
T3E4C 001:029.695 - 0.011ms returns 0
T3E4C 001:029.703 JLINK_WriteReg(R6, 0x00000000)
T3E4C 001:029.711 - 0.011ms returns 0
T3E4C 001:029.719 JLINK_WriteReg(R7, 0x00000000)
T3E4C 001:029.727 - 0.011ms returns 0
T3E4C 001:029.735 JLINK_WriteReg(R8, 0x00000000)
T3E4C 001:029.743 - 0.011ms returns 0
T3E4C 001:029.751 JLINK_WriteReg(R9, 0x2000013C)
T3E4C 001:029.760 - 0.011ms returns 0
T3E4C 001:029.768 JLINK_WriteReg(R10, 0x00000000)
T3E4C 001:029.776 - 0.011ms returns 0
T3E4C 001:029.784 JLINK_WriteReg(R11, 0x00000000)
T3E4C 001:029.792 - 0.016ms returns 0
T3E4C 001:029.809 JLINK_WriteReg(R12, 0x00000000)
T3E4C 001:029.818 - 0.012ms returns 0
T3E4C 001:029.826 JLINK_WriteReg(R13 (SP), 0x20001000)
T3E4C 001:029.835 - 0.012ms returns 0
T3E4C 001:029.843 JLINK_WriteReg(R14, 0x20000001)
T3E4C 001:029.851 - 0.011ms returns 0
T3E4C 001:029.859 JLINK_WriteReg(R15 (PC), 0x200000B0)
T3E4C 001:029.867 - 0.011ms returns 0
T3E4C 001:029.876 JLINK_WriteReg(XPSR, 0x01000000)
T3E4C 001:029.884 - 0.012ms returns 0
T3E4C 001:029.892 JLINK_WriteReg(MSP, 0x20001000)
T3E4C 001:029.900 - 0.011ms returns 0
T3E4C 001:029.908 JLINK_WriteReg(PSP, 0x20001000)
T3E4C 001:029.917 - 0.011ms returns 0
T3E4C 001:029.925 JLINK_WriteReg(CFBP, 0x00000000)
T3E4C 001:029.933 - 0.011ms returns 0
T3E4C 001:029.941 JLINK_SetBPEx(Addr = 0x20000000, Type = 0xFFFFFFF2)
T3E4C 001:029.950 - 0.013ms returns 0x00000006
T3E4C 001:029.959 JLINK_Go()
T3E4C 001:029.974   CPU_ReadMem(4 bytes @ 0xE0001000)
T3E4C 001:030.737   CPU_WriteMem(4 bytes @ 0xE0001000)
T3E4C 001:034.418 - 4.468ms
T3E4C 001:034.441 JLINK_IsHalted()
T3E4C 001:037.061   CPU_ReadMem(2 bytes @ 0x20000000)
T3E4C 001:037.661 - 3.239ms returns TRUE
T3E4C 001:037.698 JLINK_ReadReg(R15 (PC))
T3E4C 001:037.718 - 0.027ms returns 0x20000000
T3E4C 001:037.738 JLINK_ClrBPEx(BPHandle = 0x00000006)
T3E4C 001:037.752 - 0.019ms returns 0x00
T3E4C 001:037.770 JLINK_ReadReg(R0)
T3E4C 001:037.791 - 0.030ms returns 0x00000001
T3E4C 001:037.818 JLINK_HasError()
T3E4C 001:037.839 JLINK_WriteReg(R0, 0x08000100)
T3E4C 001:037.854 - 0.022ms returns 0
T3E4C 001:037.875 JLINK_WriteReg(R1, 0x00000080)
T3E4C 001:037.895 - 0.026ms returns 0
T3E4C 001:037.913 JLINK_WriteReg(R2, 0x00000000)
T3E4C 001:037.929 - 0.026ms returns 0
T3E4C 001:037.953 JLINK_WriteReg(R3, 0x00000000)
T3E4C 001:037.967 - 0.020ms returns 0
T3E4C 001:037.983 JLINK_WriteReg(R4, 0x00000000)
T3E4C 001:037.996 - 0.019ms returns 0
T3E4C 001:038.010 JLINK_WriteReg(R5, 0x00000000)
T3E4C 001:038.023 - 0.019ms returns 0
T3E4C 001:038.038 JLINK_WriteReg(R6, 0x00000000)
T3E4C 001:038.055 - 0.025ms returns 0
T3E4C 001:038.077 JLINK_WriteReg(R7, 0x00000000)
T3E4C 001:038.092 - 0.021ms returns 0
T3E4C 001:038.110 JLINK_WriteReg(R8, 0x00000000)
T3E4C 001:038.124 - 0.019ms returns 0
T3E4C 001:038.144 JLINK_WriteReg(R9, 0x2000013C)
T3E4C 001:038.159 - 0.021ms returns 0
T3E4C 001:038.175 JLINK_WriteReg(R10, 0x00000000)
T3E4C 001:038.189 - 0.019ms returns 0
T3E4C 001:038.259 JLINK_WriteReg(R11, 0x00000000)
T3E4C 001:038.274 - 0.019ms returns 0
T3E4C 001:038.284 JLINK_WriteReg(R12, 0x00000000)
T3E4C 001:038.292 - 0.011ms returns 0
T3E4C 001:038.300 JLINK_WriteReg(R13 (SP), 0x20001000)
T3E4C 001:038.309 - 0.012ms returns 0
T3E4C 001:038.317 JLINK_WriteReg(R14, 0x20000001)
T3E4C 001:038.325 - 0.011ms returns 0
T3E4C 001:038.333 JLINK_WriteReg(R15 (PC), 0x2000007A)
T3E4C 001:038.341 - 0.011ms returns 0
T3E4C 001:038.349 JLINK_WriteReg(XPSR, 0x01000000)
T3E4C 001:038.358 - 0.011ms returns 0
T3E4C 001:038.366 JLINK_WriteReg(MSP, 0x20001000)
T3E4C 001:038.374 - 0.011ms returns 0
T3E4C 001:038.382 JLINK_WriteReg(PSP, 0x20001000)
T3E4C 001:038.391 - 0.016ms returns 0
T3E4C 001:038.406 JLINK_WriteReg(CFBP, 0x00000000)
T3E4C 001:038.420 - 0.021ms returns 0
T3E4C 001:038.435 JLINK_SetBPEx(Addr = 0x20000000, Type = 0xFFFFFFF2)
T3E4C 001:038.447 - 0.015ms returns 0x00000007
T3E4C 001:038.455 JLINK_Go()
T3E4C 001:038.483   CPU_ReadMem(4 bytes @ 0xE0001000)
T3E4C 001:039.050   CPU_WriteMem(4 bytes @ 0xE0001000)
T3E4C 001:043.142 - 4.705ms
T3E4C 001:043.172 JLINK_IsHalted()
T3E4C 001:043.992 - 0.828ms returns FALSE
T3E4C 001:044.008 JLINK_HasError()
T3E4C 001:047.253 JLINK_IsHalted()
T3E4C 001:050.036   CPU_ReadMem(2 bytes @ 0x20000000)
T3E4C 001:050.884 - 3.639ms returns TRUE
T3E4C 001:050.901 JLINK_ReadReg(R15 (PC))
T3E4C 001:050.917 - 0.021ms returns 0x20000000
T3E4C 001:050.930 JLINK_ClrBPEx(BPHandle = 0x00000007)
T3E4C 001:050.942 - 0.015ms returns 0x00
T3E4C 001:050.951 JLINK_ReadReg(R0)
T3E4C 001:050.959 - 0.012ms returns 0x00000000
T3E4C 001:051.580 JLINK_HasError()
T3E4C 001:051.599 JLINK_WriteReg(R0, 0x08000180)
T3E4C 001:051.609 - 0.014ms returns 0
T3E4C 001:051.618 JLINK_WriteReg(R1, 0x00000080)
T3E4C 001:051.626 - 0.012ms returns 0
T3E4C 001:051.635 JLINK_WriteReg(R2, 0x00000000)
T3E4C 001:051.643 - 0.011ms returns 0
T3E4C 001:051.651 JLINK_WriteReg(R3, 0x00000000)
T3E4C 001:051.659 - 0.011ms returns 0
T3E4C 001:051.667 JLINK_WriteReg(R4, 0x00000000)
T3E4C 001:051.675 - 0.011ms returns 0
T3E4C 001:051.683 JLINK_WriteReg(R5, 0x00000000)
T3E4C 001:051.691 - 0.011ms returns 0
T3E4C 001:051.699 JLINK_WriteReg(R6, 0x00000000)
T3E4C 001:051.707 - 0.011ms returns 0
T3E4C 001:051.715 JLINK_WriteReg(R7, 0x00000000)
T3E4C 001:051.723 - 0.011ms returns 0
T3E4C 001:051.731 JLINK_WriteReg(R8, 0x00000000)
T3E4C 001:051.739 - 0.011ms returns 0
T3E4C 001:051.748 JLINK_WriteReg(R9, 0x2000013C)
T3E4C 001:051.755 - 0.011ms returns 0
T3E4C 001:051.764 JLINK_WriteReg(R10, 0x00000000)
T3E4C 001:051.772 - 0.012ms returns 0
T3E4C 001:051.780 JLINK_WriteReg(R11, 0x00000000)
T3E4C 001:051.788 - 0.011ms returns 0
T3E4C 001:051.796 JLINK_WriteReg(R12, 0x00000000)
T3E4C 001:051.804 - 0.011ms returns 0
T3E4C 001:051.812 JLINK_WriteReg(R13 (SP), 0x20001000)
T3E4C 001:051.821 - 0.012ms returns 0
T3E4C 001:051.829 JLINK_WriteReg(R14, 0x20000001)
T3E4C 001:051.837 - 0.011ms returns 0
T3E4C 001:051.845 JLINK_WriteReg(R15 (PC), 0x200000B0)
T3E4C 001:051.853 - 0.011ms returns 0
T3E4C 001:051.861 JLINK_WriteReg(XPSR, 0x01000000)
T3E4C 001:051.869 - 0.011ms returns 0
T3E4C 001:051.877 JLINK_WriteReg(MSP, 0x20001000)
T3E4C 001:051.885 - 0.011ms returns 0
T3E4C 001:051.893 JLINK_WriteReg(PSP, 0x20001000)
T3E4C 001:051.901 - 0.011ms returns 0
T3E4C 001:051.909 JLINK_WriteReg(CFBP, 0x00000000)
T3E4C 001:051.917 - 0.011ms returns 0
T3E4C 001:051.925 JLINK_SetBPEx(Addr = 0x20000000, Type = 0xFFFFFFF2)
T3E4C 001:051.939 - 0.017ms returns 0x00000008
T3E4C 001:051.947 JLINK_Go()
T3E4C 001:051.963   CPU_ReadMem(4 bytes @ 0xE0001000)
T3E4C 001:052.737   CPU_WriteMem(4 bytes @ 0xE0001000)
T3E4C 001:056.609 - 4.687ms
T3E4C 001:056.646 JLINK_IsHalted()
T3E4C 001:059.651   CPU_ReadMem(2 bytes @ 0x20000000)
T3E4C 001:060.499 - 3.860ms returns TRUE
T3E4C 001:060.516 JLINK_ReadReg(R15 (PC))
T3E4C 001:060.530 - 0.020ms returns 0x20000000
T3E4C 001:060.543 JLINK_ClrBPEx(BPHandle = 0x00000008)
T3E4C 001:060.555 - 0.015ms returns 0x00
T3E4C 001:060.564 JLINK_ReadReg(R0)
T3E4C 001:060.572 - 0.012ms returns 0x00000001
T3E4C 001:060.582 JLINK_HasError()
T3E4C 001:060.591 JLINK_WriteReg(R0, 0x08000180)
T3E4C 001:060.600 - 0.012ms returns 0
T3E4C 001:060.608 JLINK_WriteReg(R1, 0x00000080)
T3E4C 001:060.616 - 0.011ms returns 0
T3E4C 001:060.624 JLINK_WriteReg(R2, 0x00000000)
T3E4C 001:060.632 - 0.011ms returns 0
T3E4C 001:060.640 JLINK_WriteReg(R3, 0x00000000)
T3E4C 001:060.648 - 0.011ms returns 0
T3E4C 001:060.656 JLINK_WriteReg(R4, 0x00000000)
T3E4C 001:060.664 - 0.011ms returns 0
T3E4C 001:060.672 JLINK_WriteReg(R5, 0x00000000)
T3E4C 001:060.680 - 0.011ms returns 0
T3E4C 001:060.688 JLINK_WriteReg(R6, 0x00000000)
T3E4C 001:060.696 - 0.011ms returns 0
T3E4C 001:060.704 JLINK_WriteReg(R7, 0x00000000)
T3E4C 001:060.712 - 0.011ms returns 0
T3E4C 001:060.720 JLINK_WriteReg(R8, 0x00000000)
T3E4C 001:060.728 - 0.011ms returns 0
T3E4C 001:060.736 JLINK_WriteReg(R9, 0x2000013C)
T3E4C 001:060.744 - 0.011ms returns 0
T3E4C 001:060.752 JLINK_WriteReg(R10, 0x00000000)
T3E4C 001:060.760 - 0.011ms returns 0
T3E4C 001:060.768 JLINK_WriteReg(R11, 0x00000000)
T3E4C 001:060.775 - 0.011ms returns 0
T3E4C 001:060.784 JLINK_WriteReg(R12, 0x00000000)
T3E4C 001:060.792 - 0.011ms returns 0
T3E4C 001:060.800 JLINK_WriteReg(R13 (SP), 0x20001000)
T3E4C 001:060.808 - 0.012ms returns 0
T3E4C 001:060.816 JLINK_WriteReg(R14, 0x20000001)
T3E4C 001:060.824 - 0.011ms returns 0
T3E4C 001:060.832 JLINK_WriteReg(R15 (PC), 0x2000007A)
T3E4C 001:060.840 - 0.011ms returns 0
T3E4C 001:060.848 JLINK_WriteReg(XPSR, 0x01000000)
T3E4C 001:060.856 - 0.011ms returns 0
T3E4C 001:060.937 JLINK_WriteReg(MSP, 0x20001000)
T3E4C 001:060.952 - 0.019ms returns 0
T3E4C 001:060.961 JLINK_WriteReg(PSP, 0x20001000)
T3E4C 001:060.969 - 0.012ms returns 0
T3E4C 001:060.977 JLINK_WriteReg(CFBP, 0x00000000)
T3E4C 001:060.985 - 0.011ms returns 0
T3E4C 001:060.994 JLINK_SetBPEx(Addr = 0x20000000, Type = 0xFFFFFFF2)
T3E4C 001:061.003 - 0.012ms returns 0x00000009
T3E4C 001:061.016 JLINK_Go()
T3E4C 001:061.032   CPU_ReadMem(4 bytes @ 0xE0001000)
T3E4C 001:061.883   CPU_WriteMem(4 bytes @ 0xE0001000)
T3E4C 001:065.418 - 4.410ms
T3E4C 001:065.440 JLINK_IsHalted()
T3E4C 001:066.225 - 0.793ms returns FALSE
T3E4C 001:066.245 JLINK_HasError()
T3E4C 001:070.051 JLINK_IsHalted()
T3E4C 001:072.824   CPU_ReadMem(2 bytes @ 0x20000000)
T3E4C 001:073.530 - 3.495ms returns TRUE
T3E4C 001:073.557 JLINK_ReadReg(R15 (PC))
T3E4C 001:073.575 - 0.022ms returns 0x20000000
T3E4C 001:073.585 JLINK_ClrBPEx(BPHandle = 0x00000009)
T3E4C 001:073.595 - 0.013ms returns 0x00
T3E4C 001:073.604 JLINK_ReadReg(R0)
T3E4C 001:073.612 - 0.012ms returns 0x00000000
T3E4C 001:074.384 JLINK_HasError()
T3E4C 001:074.399 JLINK_WriteReg(R0, 0x08000200)
T3E4C 001:074.410 - 0.014ms returns 0
T3E4C 001:074.419 JLINK_WriteReg(R1, 0x00000080)
T3E4C 001:074.427 - 0.012ms returns 0
T3E4C 001:074.435 JLINK_WriteReg(R2, 0x00000000)
T3E4C 001:074.443 - 0.011ms returns 0
T3E4C 001:074.451 JLINK_WriteReg(R3, 0x00000000)
T3E4C 001:074.460 - 0.011ms returns 0
T3E4C 001:074.468 JLINK_WriteReg(R4, 0x00000000)
T3E4C 001:074.475 - 0.011ms returns 0
T3E4C 001:074.484 JLINK_WriteReg(R5, 0x00000000)
T3E4C 001:074.492 - 0.011ms returns 0
T3E4C 001:074.500 JLINK_WriteReg(R6, 0x00000000)
T3E4C 001:074.508 - 0.011ms returns 0
T3E4C 001:074.516 JLINK_WriteReg(R7, 0x00000000)
T3E4C 001:074.523 - 0.011ms returns 0
T3E4C 001:074.531 JLINK_WriteReg(R8, 0x00000000)
T3E4C 001:074.539 - 0.011ms returns 0
T3E4C 001:074.551 JLINK_WriteReg(R9, 0x2000013C)
T3E4C 001:074.560 - 0.012ms returns 0
T3E4C 001:074.568 JLINK_WriteReg(R10, 0x00000000)
T3E4C 001:074.576 - 0.011ms returns 0
T3E4C 001:074.584 JLINK_WriteReg(R11, 0x00000000)
T3E4C 001:074.592 - 0.011ms returns 0
T3E4C 001:074.600 JLINK_WriteReg(R12, 0x00000000)
T3E4C 001:074.608 - 0.011ms returns 0
T3E4C 001:074.617 JLINK_WriteReg(R13 (SP), 0x20001000)
T3E4C 001:074.625 - 0.012ms returns 0
T3E4C 001:074.633 JLINK_WriteReg(R14, 0x20000001)
T3E4C 001:074.641 - 0.011ms returns 0
T3E4C 001:074.650 JLINK_WriteReg(R15 (PC), 0x200000B0)
T3E4C 001:074.658 - 0.011ms returns 0
T3E4C 001:074.666 JLINK_WriteReg(XPSR, 0x01000000)
T3E4C 001:074.674 - 0.011ms returns 0
T3E4C 001:074.682 JLINK_WriteReg(MSP, 0x20001000)
T3E4C 001:074.690 - 0.011ms returns 0
T3E4C 001:074.698 JLINK_WriteReg(PSP, 0x20001000)
T3E4C 001:074.706 - 0.011ms returns 0
T3E4C 001:074.714 JLINK_WriteReg(CFBP, 0x00000000)
T3E4C 001:074.722 - 0.011ms returns 0
T3E4C 001:074.730 JLINK_SetBPEx(Addr = 0x20000000, Type = 0xFFFFFFF2)
T3E4C 001:074.739 - 0.013ms returns 0x0000000A
T3E4C 001:074.748 JLINK_Go()
T3E4C 001:074.764   CPU_ReadMem(4 bytes @ 0xE0001000)
T3E4C 001:075.508   CPU_WriteMem(4 bytes @ 0xE0001000)
T3E4C 001:079.496 - 4.757ms
T3E4C 001:079.513 JLINK_IsHalted()
T3E4C 001:082.172   CPU_ReadMem(2 bytes @ 0x20000000)
T3E4C 001:082.807 - 3.302ms returns TRUE
T3E4C 001:082.823 JLINK_ReadReg(R15 (PC))
T3E4C 001:082.835 - 0.015ms returns 0x20000000
T3E4C 001:082.844 JLINK_ClrBPEx(BPHandle = 0x0000000A)
T3E4C 001:082.853 - 0.012ms returns 0x00
T3E4C 001:082.861 JLINK_ReadReg(R0)
T3E4C 001:082.870 - 0.012ms returns 0x00000001
T3E4C 001:082.879 JLINK_HasError()
T3E4C 001:082.887 JLINK_WriteReg(R0, 0x08000200)
T3E4C 001:082.896 - 0.012ms returns 0
T3E4C 001:082.904 JLINK_WriteReg(R1, 0x00000080)
T3E4C 001:082.912 - 0.011ms returns 0
T3E4C 001:082.920 JLINK_WriteReg(R2, 0x00000000)
T3E4C 001:082.928 - 0.011ms returns 0
T3E4C 001:082.936 JLINK_WriteReg(R3, 0x00000000)
T3E4C 001:082.944 - 0.011ms returns 0
T3E4C 001:082.952 JLINK_WriteReg(R4, 0x00000000)
T3E4C 001:082.960 - 0.011ms returns 0
T3E4C 001:082.974 JLINK_WriteReg(R5, 0x00000000)
T3E4C 001:082.986 - 0.016ms returns 0
T3E4C 001:082.995 JLINK_WriteReg(R6, 0x00000000)
T3E4C 001:083.003 - 0.011ms returns 0
T3E4C 001:083.011 JLINK_WriteReg(R7, 0x00000000)
T3E4C 001:083.019 - 0.011ms returns 0
T3E4C 001:083.027 JLINK_WriteReg(R8, 0x00000000)
T3E4C 001:083.035 - 0.011ms returns 0
T3E4C 001:083.043 JLINK_WriteReg(R9, 0x2000013C)
T3E4C 001:083.050 - 0.011ms returns 0
T3E4C 001:083.058 JLINK_WriteReg(R10, 0x00000000)
T3E4C 001:083.066 - 0.011ms returns 0
T3E4C 001:083.074 JLINK_WriteReg(R11, 0x00000000)
T3E4C 001:083.082 - 0.011ms returns 0
T3E4C 001:083.090 JLINK_WriteReg(R12, 0x00000000)
T3E4C 001:083.098 - 0.011ms returns 0
T3E4C 001:083.106 JLINK_WriteReg(R13 (SP), 0x20001000)
T3E4C 001:083.115 - 0.012ms returns 0
T3E4C 001:083.123 JLINK_WriteReg(R14, 0x20000001)
T3E4C 001:083.131 - 0.011ms returns 0
T3E4C 001:083.139 JLINK_WriteReg(R15 (PC), 0x2000007A)
T3E4C 001:083.147 - 0.011ms returns 0
T3E4C 001:083.155 JLINK_WriteReg(XPSR, 0x01000000)
T3E4C 001:083.163 - 0.011ms returns 0
T3E4C 001:083.171 JLINK_WriteReg(MSP, 0x20001000)
T3E4C 001:083.179 - 0.011ms returns 0
T3E4C 001:083.187 JLINK_WriteReg(PSP, 0x20001000)
T3E4C 001:083.195 - 0.011ms returns 0
T3E4C 001:083.203 JLINK_WriteReg(CFBP, 0x00000000)
T3E4C 001:083.223 - 0.025ms returns 0
T3E4C 001:083.233 JLINK_SetBPEx(Addr = 0x20000000, Type = 0xFFFFFFF2)
T3E4C 001:083.243 - 0.013ms returns 0x0000000B
T3E4C 001:083.251 JLINK_Go()
T3E4C 001:083.266   CPU_ReadMem(4 bytes @ 0xE0001000)
T3E4C 001:083.810   CPU_WriteMem(4 bytes @ 0xE0001000)
T3E4C 001:087.522 - 4.290ms
T3E4C 001:087.553 JLINK_IsHalted()
T3E4C 001:088.144 - 0.603ms returns FALSE
T3E4C 001:088.163 JLINK_HasError()
T3E4C 001:089.281 JLINK_IsHalted()
T3E4C 001:090.061 - 0.787ms returns FALSE
T3E4C 001:090.076 JLINK_HasError()
T3E4C 001:092.000 JLINK_IsHalted()
T3E4C 001:095.042   CPU_ReadMem(2 bytes @ 0x20000000)
T3E4C 001:095.784 - 3.800ms returns TRUE
T3E4C 001:095.817 JLINK_ReadReg(R15 (PC))
T3E4C 001:095.842 - 0.033ms returns 0x20000000
T3E4C 001:095.862 JLINK_ClrBPEx(BPHandle = 0x0000000B)
T3E4C 001:095.877 - 0.022ms returns 0x00
T3E4C 001:095.894 JLINK_ReadReg(R0)
T3E4C 001:095.908 - 0.021ms returns 0x00000000
T3E4C 001:096.597 JLINK_HasError()
T3E4C 001:096.613 JLINK_WriteReg(R0, 0x08000280)
T3E4C 001:096.624 - 0.014ms returns 0
T3E4C 001:096.633 JLINK_WriteReg(R1, 0x00000080)
T3E4C 001:096.646 - 0.017ms returns 0
T3E4C 001:096.655 JLINK_WriteReg(R2, 0x00000000)
T3E4C 001:096.663 - 0.011ms returns 0
T3E4C 001:096.671 JLINK_WriteReg(R3, 0x00000000)
T3E4C 001:096.679 - 0.011ms returns 0
T3E4C 001:096.687 JLINK_WriteReg(R4, 0x00000000)
T3E4C 001:096.695 - 0.011ms returns 0
T3E4C 001:096.703 JLINK_WriteReg(R5, 0x00000000)
T3E4C 001:096.711 - 0.011ms returns 0
T3E4C 001:096.719 JLINK_WriteReg(R6, 0x00000000)
T3E4C 001:096.727 - 0.011ms returns 0
T3E4C 001:096.735 JLINK_WriteReg(R7, 0x00000000)
T3E4C 001:096.743 - 0.011ms returns 0
T3E4C 001:096.751 JLINK_WriteReg(R8, 0x00000000)
T3E4C 001:096.759 - 0.011ms returns 0
T3E4C 001:096.767 JLINK_WriteReg(R9, 0x2000013C)
T3E4C 001:096.775 - 0.011ms returns 0
T3E4C 001:096.783 JLINK_WriteReg(R10, 0x00000000)
T3E4C 001:096.791 - 0.011ms returns 0
T3E4C 001:096.799 JLINK_WriteReg(R11, 0x00000000)
T3E4C 001:096.807 - 0.011ms returns 0
T3E4C 001:096.814 JLINK_WriteReg(R12, 0x00000000)
T3E4C 001:096.822 - 0.011ms returns 0
T3E4C 001:096.830 JLINK_WriteReg(R13 (SP), 0x20001000)
T3E4C 001:096.839 - 0.012ms returns 0
T3E4C 001:096.847 JLINK_WriteReg(R14, 0x20000001)
T3E4C 001:096.855 - 0.011ms returns 0
T3E4C 001:096.863 JLINK_WriteReg(R15 (PC), 0x200000B0)
T3E4C 001:096.870 - 0.011ms returns 0
T3E4C 001:096.878 JLINK_WriteReg(XPSR, 0x01000000)
T3E4C 001:096.886 - 0.011ms returns 0
T3E4C 001:096.894 JLINK_WriteReg(MSP, 0x20001000)
T3E4C 001:096.902 - 0.011ms returns 0
T3E4C 001:096.910 JLINK_WriteReg(PSP, 0x20001000)
T3E4C 001:096.918 - 0.011ms returns 0
T3E4C 001:096.926 JLINK_WriteReg(CFBP, 0x00000000)
T3E4C 001:096.940 - 0.022ms returns 0
T3E4C 001:096.953 JLINK_SetBPEx(Addr = 0x20000000, Type = 0xFFFFFFF2)
T3E4C 001:096.963 - 0.013ms returns 0x0000000C
T3E4C 001:096.971 JLINK_Go()
T3E4C 001:096.987   CPU_ReadMem(4 bytes @ 0xE0001000)
T3E4C 001:097.750   CPU_WriteMem(4 bytes @ 0xE0001000)
T3E4C 001:101.751 - 4.794ms
T3E4C 001:101.775 JLINK_IsHalted()
T3E4C 001:104.716   CPU_ReadMem(2 bytes @ 0x20000000)
T3E4C 001:105.275 - 3.513ms returns TRUE
T3E4C 001:105.301 JLINK_ReadReg(R15 (PC))
T3E4C 001:105.319 - 0.024ms returns 0x20000000
T3E4C 001:105.331 JLINK_ClrBPEx(BPHandle = 0x0000000C)
T3E4C 001:105.349 - 0.024ms returns 0x00
T3E4C 001:105.364 JLINK_ReadReg(R0)
T3E4C 001:105.379 - 0.020ms returns 0x00000001
T3E4C 001:105.393 JLINK_HasError()
T3E4C 001:105.407 JLINK_WriteReg(R0, 0x08000280)
T3E4C 001:105.421 - 0.020ms returns 0
T3E4C 001:105.435 JLINK_WriteReg(R1, 0x00000080)
T3E4C 001:105.447 - 0.021ms returns 0
T3E4C 001:105.466 JLINK_WriteReg(R2, 0x00000000)
T3E4C 001:105.476 - 0.013ms returns 0
T3E4C 001:105.484 JLINK_WriteReg(R3, 0x00000000)
T3E4C 001:105.492 - 0.011ms returns 0
T3E4C 001:105.500 JLINK_WriteReg(R4, 0x00000000)
T3E4C 001:105.508 - 0.011ms returns 0
T3E4C 001:105.517 JLINK_WriteReg(R5, 0x00000000)
T3E4C 001:105.525 - 0.011ms returns 0
T3E4C 001:105.533 JLINK_WriteReg(R6, 0x00000000)
T3E4C 001:105.540 - 0.011ms returns 0
T3E4C 001:105.549 JLINK_WriteReg(R7, 0x00000000)
T3E4C 001:105.556 - 0.011ms returns 0
T3E4C 001:105.564 JLINK_WriteReg(R8, 0x00000000)
T3E4C 001:105.572 - 0.011ms returns 0
T3E4C 001:105.580 JLINK_WriteReg(R9, 0x2000013C)
T3E4C 001:105.588 - 0.011ms returns 0
T3E4C 001:105.596 JLINK_WriteReg(R10, 0x00000000)
T3E4C 001:105.604 - 0.011ms returns 0
T3E4C 001:105.612 JLINK_WriteReg(R11, 0x00000000)
T3E4C 001:105.620 - 0.011ms returns 0
T3E4C 001:105.628 JLINK_WriteReg(R12, 0x00000000)
T3E4C 001:105.636 - 0.015ms returns 0
T3E4C 001:105.648 JLINK_WriteReg(R13 (SP), 0x20001000)
T3E4C 001:105.657 - 0.012ms returns 0
T3E4C 001:105.665 JLINK_WriteReg(R14, 0x20000001)
T3E4C 001:105.678 - 0.019ms returns 0
T3E4C 001:105.692 JLINK_WriteReg(R15 (PC), 0x2000007A)
T3E4C 001:105.705 - 0.018ms returns 0
T3E4C 001:105.717 JLINK_WriteReg(XPSR, 0x01000000)
T3E4C 001:105.728 - 0.017ms returns 0
T3E4C 001:105.740 JLINK_WriteReg(MSP, 0x20001000)
T3E4C 001:105.752 - 0.017ms returns 0
T3E4C 001:105.764 JLINK_WriteReg(PSP, 0x20001000)
T3E4C 001:105.776 - 0.017ms returns 0
T3E4C 001:105.789 JLINK_WriteReg(CFBP, 0x00000000)
T3E4C 001:105.802 - 0.018ms returns 0
T3E4C 001:105.815 JLINK_SetBPEx(Addr = 0x20000000, Type = 0xFFFFFFF2)
T3E4C 001:105.830 - 0.021ms returns 0x0000000D
T3E4C 001:105.844 JLINK_Go()
T3E4C 001:105.871   CPU_ReadMem(4 bytes @ 0xE0001000)
T3E4C 001:106.445   CPU_WriteMem(4 bytes @ 0xE0001000)
T3E4C 001:110.520 - 4.690ms
T3E4C 001:110.544 JLINK_IsHalted()
T3E4C 001:111.346 - 0.811ms returns FALSE
T3E4C 001:111.364 JLINK_HasError()
T3E4C 001:114.913 JLINK_IsHalted()
T3E4C 001:117.887   CPU_ReadMem(2 bytes @ 0x20000000)
T3E4C 001:118.503 - 3.598ms returns TRUE
T3E4C 001:118.519 JLINK_ReadReg(R15 (PC))
T3E4C 001:118.534 - 0.021ms returns 0x20000000
T3E4C 001:118.547 JLINK_ClrBPEx(BPHandle = 0x0000000D)
T3E4C 001:118.559 - 0.016ms returns 0x00
T3E4C 001:118.569 JLINK_ReadReg(R0)
T3E4C 001:118.577 - 0.012ms returns 0x00000000
T3E4C 001:119.339 JLINK_HasError()
T3E4C 001:119.354 JLINK_WriteReg(R0, 0x08000300)
T3E4C 001:119.365 - 0.014ms returns 0
T3E4C 001:119.374 JLINK_WriteReg(R1, 0x00000080)
T3E4C 001:119.382 - 0.012ms returns 0
T3E4C 001:119.390 JLINK_WriteReg(R2, 0x00000000)
T3E4C 001:119.398 - 0.011ms returns 0
T3E4C 001:119.406 JLINK_WriteReg(R3, 0x00000000)
T3E4C 001:119.414 - 0.011ms returns 0
T3E4C 001:119.423 JLINK_WriteReg(R4, 0x00000000)
T3E4C 001:119.430 - 0.011ms returns 0
T3E4C 001:119.438 JLINK_WriteReg(R5, 0x00000000)
T3E4C 001:119.446 - 0.011ms returns 0
T3E4C 001:119.454 JLINK_WriteReg(R6, 0x00000000)
T3E4C 001:119.462 - 0.011ms returns 0
T3E4C 001:119.471 JLINK_WriteReg(R7, 0x00000000)
T3E4C 001:119.485 - 0.021ms returns 0
T3E4C 001:119.497 JLINK_WriteReg(R8, 0x00000000)
T3E4C 001:119.506 - 0.011ms returns 0
T3E4C 001:119.514 JLINK_WriteReg(R9, 0x2000013C)
T3E4C 001:119.522 - 0.011ms returns 0
T3E4C 001:119.530 JLINK_WriteReg(R10, 0x00000000)
T3E4C 001:119.538 - 0.011ms returns 0
T3E4C 001:119.546 JLINK_WriteReg(R11, 0x00000000)
T3E4C 001:119.554 - 0.011ms returns 0
T3E4C 001:119.562 JLINK_WriteReg(R12, 0x00000000)
T3E4C 001:119.570 - 0.011ms returns 0
T3E4C 001:119.578 JLINK_WriteReg(R13 (SP), 0x20001000)
T3E4C 001:119.586 - 0.012ms returns 0
T3E4C 001:119.594 JLINK_WriteReg(R14, 0x20000001)
T3E4C 001:119.602 - 0.011ms returns 0
T3E4C 001:119.610 JLINK_WriteReg(R15 (PC), 0x200000B0)
T3E4C 001:119.618 - 0.011ms returns 0
T3E4C 001:119.627 JLINK_WriteReg(XPSR, 0x01000000)
T3E4C 001:119.635 - 0.011ms returns 0
T3E4C 001:119.643 JLINK_WriteReg(MSP, 0x20001000)
T3E4C 001:119.651 - 0.011ms returns 0
T3E4C 001:119.659 JLINK_WriteReg(PSP, 0x20001000)
T3E4C 001:119.667 - 0.011ms returns 0
T3E4C 001:119.675 JLINK_WriteReg(CFBP, 0x00000000)
T3E4C 001:119.683 - 0.011ms returns 0
T3E4C 001:119.691 JLINK_SetBPEx(Addr = 0x20000000, Type = 0xFFFFFFF2)
T3E4C 001:119.700 - 0.013ms returns 0x0000000E
T3E4C 001:119.709 JLINK_Go()
T3E4C 001:119.724   CPU_ReadMem(4 bytes @ 0xE0001000)
T3E4C 001:120.410   CPU_WriteMem(4 bytes @ 0xE0001000)
T3E4C 001:124.253 - 4.571ms
T3E4C 001:124.297 JLINK_IsHalted()
T3E4C 001:127.319   CPU_ReadMem(2 bytes @ 0x20000000)
T3E4C 001:127.918 - 3.629ms returns TRUE
T3E4C 001:127.942 JLINK_ReadReg(R15 (PC))
T3E4C 001:127.964 - 0.029ms returns 0x20000000
T3E4C 001:127.981 JLINK_ClrBPEx(BPHandle = 0x0000000E)
T3E4C 001:127.996 - 0.020ms returns 0x00
T3E4C 001:128.011 JLINK_ReadReg(R0)
T3E4C 001:128.025 - 0.019ms returns 0x00000001
T3E4C 001:128.041 JLINK_HasError()
T3E4C 001:128.059 JLINK_WriteReg(R0, 0x08000300)
T3E4C 001:128.073 - 0.020ms returns 0
T3E4C 001:128.089 JLINK_WriteReg(R1, 0x00000080)
T3E4C 001:128.102 - 0.020ms returns 0
T3E4C 001:128.118 JLINK_WriteReg(R2, 0x00000000)
T3E4C 001:128.135 - 0.022ms returns 0
T3E4C 001:128.149 JLINK_WriteReg(R3, 0x00000000)
T3E4C 001:128.162 - 0.019ms returns 0
T3E4C 001:128.177 JLINK_WriteReg(R4, 0x00000000)
T3E4C 001:128.190 - 0.019ms returns 0
T3E4C 001:128.205 JLINK_WriteReg(R5, 0x00000000)
T3E4C 001:128.227 - 0.028ms returns 0
T3E4C 001:128.243 JLINK_WriteReg(R6, 0x00000000)
T3E4C 001:128.256 - 0.019ms returns 0
T3E4C 001:128.271 JLINK_WriteReg(R7, 0x00000000)
T3E4C 001:128.285 - 0.019ms returns 0
T3E4C 001:128.299 JLINK_WriteReg(R8, 0x00000000)
T3E4C 001:128.312 - 0.019ms returns 0
T3E4C 001:128.327 JLINK_WriteReg(R9, 0x2000013C)
T3E4C 001:128.341 - 0.019ms returns 0
T3E4C 001:128.355 JLINK_WriteReg(R10, 0x00000000)
T3E4C 001:128.368 - 0.019ms returns 0
T3E4C 001:128.384 JLINK_WriteReg(R11, 0x00000000)
T3E4C 001:128.397 - 0.019ms returns 0
T3E4C 001:128.411 JLINK_WriteReg(R12, 0x00000000)
T3E4C 001:128.425 - 0.019ms returns 0
T3E4C 001:128.440 JLINK_WriteReg(R13 (SP), 0x20001000)
T3E4C 001:128.454 - 0.020ms returns 0
T3E4C 001:128.468 JLINK_WriteReg(R14, 0x20000001)
T3E4C 001:128.481 - 0.019ms returns 0
T3E4C 001:128.496 JLINK_WriteReg(R15 (PC), 0x2000007A)
T3E4C 001:128.510 - 0.019ms returns 0
T3E4C 001:128.524 JLINK_WriteReg(XPSR, 0x01000000)
T3E4C 001:128.538 - 0.019ms returns 0
T3E4C 001:128.552 JLINK_WriteReg(MSP, 0x20001000)
T3E4C 001:128.566 - 0.019ms returns 0
T3E4C 001:128.581 JLINK_WriteReg(PSP, 0x20001000)
T3E4C 001:128.594 - 0.019ms returns 0
T3E4C 001:128.609 JLINK_WriteReg(CFBP, 0x00000000)
T3E4C 001:128.622 - 0.019ms returns 0
T3E4C 001:128.637 JLINK_SetBPEx(Addr = 0x20000000, Type = 0xFFFFFFF2)
T3E4C 001:128.652 - 0.020ms returns 0x0000000F
T3E4C 001:128.666 JLINK_Go()
T3E4C 001:128.689   CPU_ReadMem(4 bytes @ 0xE0001000)
T3E4C 001:129.414   CPU_WriteMem(4 bytes @ 0xE0001000)
T3E4C 001:133.162 - 4.519ms
T3E4C 001:133.205 JLINK_IsHalted()
T3E4C 001:133.774 - 0.582ms returns FALSE
T3E4C 001:133.804 JLINK_HasError()
T3E4C 001:147.290 JLINK_IsHalted()
T3E4C 001:150.199   CPU_ReadMem(2 bytes @ 0x20000000)
T3E4C 001:150.794 - 3.523ms returns TRUE
T3E4C 001:150.824 JLINK_ReadReg(R15 (PC))
T3E4C 001:150.839 - 0.019ms returns 0x20000000
T3E4C 001:150.848 JLINK_ClrBPEx(BPHandle = 0x0000000F)
T3E4C 001:150.857 - 0.012ms returns 0x00
T3E4C 001:150.866 JLINK_ReadReg(R0)
T3E4C 001:150.874 - 0.012ms returns 0x00000000
T3E4C 001:152.050 JLINK_HasError()
T3E4C 001:152.080 JLINK_WriteReg(R0, 0x08000380)
T3E4C 001:152.094 - 0.017ms returns 0
T3E4C 001:152.103 JLINK_WriteReg(R1, 0x00000080)
T3E4C 001:152.112 - 0.012ms returns 0
T3E4C 001:152.120 JLINK_WriteReg(R2, 0x00000000)
T3E4C 001:152.128 - 0.011ms returns 0
T3E4C 001:152.136 JLINK_WriteReg(R3, 0x00000000)
T3E4C 001:152.145 - 0.012ms returns 0
T3E4C 001:152.153 JLINK_WriteReg(R4, 0x00000000)
T3E4C 001:152.161 - 0.011ms returns 0
T3E4C 001:152.169 JLINK_WriteReg(R5, 0x00000000)
T3E4C 001:152.177 - 0.011ms returns 0
T3E4C 001:152.185 JLINK_WriteReg(R6, 0x00000000)
T3E4C 001:152.193 - 0.011ms returns 0
T3E4C 001:152.201 JLINK_WriteReg(R7, 0x00000000)
T3E4C 001:152.209 - 0.011ms returns 0
T3E4C 001:152.217 JLINK_WriteReg(R8, 0x00000000)
T3E4C 001:152.225 - 0.016ms returns 0
T3E4C 001:152.239 JLINK_WriteReg(R9, 0x2000013C)
T3E4C 001:152.247 - 0.011ms returns 0
T3E4C 001:152.256 JLINK_WriteReg(R10, 0x00000000)
T3E4C 001:152.264 - 0.011ms returns 0
T3E4C 001:152.272 JLINK_WriteReg(R11, 0x00000000)
T3E4C 001:152.280 - 0.011ms returns 0
T3E4C 001:152.288 JLINK_WriteReg(R12, 0x00000000)
T3E4C 001:152.296 - 0.011ms returns 0
T3E4C 001:152.304 JLINK_WriteReg(R13 (SP), 0x20001000)
T3E4C 001:152.312 - 0.012ms returns 0
T3E4C 001:152.321 JLINK_WriteReg(R14, 0x20000001)
T3E4C 001:152.329 - 0.011ms returns 0
T3E4C 001:152.337 JLINK_WriteReg(R15 (PC), 0x200000B0)
T3E4C 001:152.345 - 0.011ms returns 0
T3E4C 001:152.353 JLINK_WriteReg(XPSR, 0x01000000)
T3E4C 001:152.361 - 0.011ms returns 0
